Fitter Plan Stage Report for soc_top
Fri May 23 16:11:32 2025
Quartus Prime Version 25.1.0 Build 129 03/26/2025 SC Pro Edition


---------------------
; Table of Contents ;
---------------------
  1. Legal Notice
  2. Fitter Device Options
  3. Operating Settings and Conditions
  4. Pin-Out File
  5. Input Pins
  6. Output Pins
  7. I/O Bank Usage
  8. Detailed I/O Block Info
  9. All Package Pins
 10. I/O Assignment Warnings
 11. Control Signals
 12. Global & Other Fast Signals Summary
 13. Global & Other Fast Signals Details
 14. Plan Messages



----------------
; Legal Notice ;
----------------
Copyright (C) 2025  Altera Corporation. All rights reserved.
Your use of Altera Corporation's design tools, logic functions 
and other software and tools, and any partner logic 
functions, and any output files from any of the foregoing 
(including device programming or simulation files), and any 
associated documentation or information are expressly subject 
to the terms and conditions of the Altera Program License 
Subscription Agreement, the Altera Quartus Prime License Agreement,
the Altera IP License Agreement, or other applicable license
agreement, including, without limitation, that your use is for
the sole purpose of programming logic devices manufactured by
Altera and sold by Altera or its authorized distributors.  Please
refer to the Altera Software License Subscription Agreements 
on the Quartus Prime software download page.



+------------------------------------------------------------------------------------------------+
; Fitter Device Options                                                                          ;
+------------------------------------------------------------------+-----------------------------+
; Option                                                           ; Setting                     ;
+------------------------------------------------------------------+-----------------------------+
; Enable device-wide reset (DEV_CLRn)                              ; Off                         ;
; Enable device-wide output enable (DEV_OE)                        ; Off                         ;
; Enable INIT_DONE output                                          ; Off                         ;
; Configuration scheme                                             ; Passive Serial              ;
; Enable Error Detection CRC_ERROR pin                             ; Off                         ;
; Enable CvP_CONFDONE pin                                          ; Off                         ;
; Enable open drain on CRC_ERROR pin                               ; On                          ;
; Enable open drain on CvP_CONFDONE pin                            ; On                          ;
; Enable open drain on INIT_DONE pin                               ; On                          ;
; Enable open drain on Partial Reconfiguration pins                ; Off                         ;
; Enable open drain on nCEO pin                                    ; On                          ;
; Enable Partial Reconfiguration pins                              ; Off                         ;
; Enable input tri-state on active configuration pins in user mode ; Off                         ;
; Enable internal scrubbing                                        ; Off                         ;
; Active Serial clock source                                       ; 100 MHz Internal Oscillator ;
; Configuration clock source                                       ; Internal Oscillator         ;
; Configuration via Protocol                                       ; Off                         ;
; Configuration Voltage Level                                      ; Auto                        ;
; Force Configuration Voltage Level                                ; Off                         ;
; Enable nCEO output                                               ; Off                         ;
; Data[7..1]                                                       ; Unreserved                  ;
; Data[0]                                                          ; As input tri-stated         ;
; Data[31..16]                                                     ; Unreserved                  ;
; Data[15..8]                                                      ; Unreserved                  ;
+------------------------------------------------------------------+-----------------------------+


+------------------------------------+
; Operating Settings and Conditions  ;
+---------------------------+--------+
; Setting                   ; Value  ;
+---------------------------+--------+
; Nominal Core Voltage      ; 0.90 V ;
; Low Junction Temperature  ; -40 °C ;
; High Junction Temperature ; 100 °C ;
+---------------------------+--------+


+--------------+
; Pin-Out File ;
+--------------+
The pin-out file can be found in D:/SOC/output_files/soc_top.pin.


+-------------------------------------------------------------------------------------------------------------------------------------------------------------------------------------------------------------------------------------------------------------------------------+
; Input Pins                                                                                                                                                                                                                                                                    ;
+------------------+-------+----------+--------------+--------------+--------------+-----------------------+--------------------+--------+----------------+----------+--------------+--------------+-------------+---------------------------+----------------------+-----------+
; Name             ; Pin # ; I/O Bank ; X coordinate ; Y coordinate ; Z coordinate ; Combinational Fan-Out ; Registered Fan-Out ; Global ; Input Register ; Bus Hold ; Weak Pull Up ; I/O Standard ; Termination ; Termination Control Block ; Location assigned by ; Slew Rate ;
+------------------+-------+----------+--------------+--------------+--------------+-----------------------+--------------------+--------+----------------+----------+--------------+--------------+-------------+---------------------------+----------------------+-----------+
; axi_arready      ; AB15  ; 2A       ; 38           ; 13           ; 16           ; 2                     ; 0                  ; no     ; no             ; no       ; Off          ; 1.8-V        ; Off         ; --                        ; Fitter               ; no        ;
; axi_awready      ; AD19  ; 2A       ; 38           ; 15           ; 31           ; 3                     ; 0                  ; no     ; no             ; no       ; Off          ; 1.8-V        ; Off         ; --                        ; Fitter               ; no        ;
; axi_bvalid       ; AB13  ; 2A       ; 38           ; 11           ; 16           ; 0                     ; 0                  ; no     ; no             ; no       ; Off          ; 1.8-V        ; Off         ; --                        ; Fitter               ; no        ;
; axi_rdata[0]     ; AD13  ; 2A       ; 38           ; 6            ; 61           ; 1                     ; 0                  ; no     ; no             ; no       ; Off          ; 1.8-V        ; Off         ; --                        ; Fitter               ; no        ;
; axi_rdata[10]    ; AC18  ; 2A       ; 38           ; 11           ; 31           ; 1                     ; 0                  ; no     ; no             ; no       ; Off          ; 1.8-V        ; Off         ; --                        ; Fitter               ; no        ;
; axi_rdata[11]    ; AG18  ; 2A       ; 38           ; 16           ; 46           ; 1                     ; 0                  ; no     ; no             ; no       ; Off          ; 1.8-V        ; Off         ; --                        ; Fitter               ; no        ;
; axi_rdata[12]    ; AD20  ; 2A       ; 38           ; 14           ; 31           ; 1                     ; 0                  ; no     ; no             ; no       ; Off          ; 1.8-V        ; Off         ; --                        ; Fitter               ; no        ;
; axi_rdata[13]    ; AC16  ; 2A       ; 38           ; 12           ; 31           ; 1                     ; 0                  ; no     ; no             ; no       ; Off          ; 1.8-V        ; Off         ; --                        ; Fitter               ; no        ;
; axi_rdata[14]    ; AF17  ; 2A       ; 38           ; 14           ; 46           ; 1                     ; 0                  ; no     ; no             ; no       ; Off          ; 1.8-V        ; Off         ; --                        ; Fitter               ; no        ;
; axi_rdata[15]    ; AF11  ; 2A       ; 38           ; 9            ; 61           ; 1                     ; 0                  ; no     ; no             ; no       ; Off          ; 1.8-V        ; Off         ; --                        ; Fitter               ; no        ;
; axi_rdata[16]    ; AE19  ; 2A       ; 38           ; 10           ; 46           ; 1                     ; 0                  ; no     ; no             ; no       ; Off          ; 1.8-V        ; Off         ; --                        ; Fitter               ; no        ;
; axi_rdata[17]    ; AD18  ; 2A       ; 38           ; 10           ; 31           ; 1                     ; 0                  ; no     ; no             ; no       ; Off          ; 1.8-V        ; Off         ; --                        ; Fitter               ; no        ;
; axi_rdata[18]    ; AC12  ; 2A       ; 38           ; 6            ; 16           ; 1                     ; 0                  ; no     ; no             ; no       ; Off          ; 1.8-V        ; Off         ; --                        ; Fitter               ; no        ;
; axi_rdata[19]    ; AF14  ; 2A       ; 38           ; 13           ; 46           ; 1                     ; 0                  ; no     ; no             ; no       ; Off          ; 1.8-V        ; Off         ; --                        ; Fitter               ; no        ;
; axi_rdata[1]     ; AC17  ; 2A       ; 38           ; 13           ; 31           ; 1                     ; 0                  ; no     ; no             ; no       ; Off          ; 1.8-V        ; Off         ; --                        ; Fitter               ; no        ;
; axi_rdata[20]    ; AF13  ; 2A       ; 38           ; 12           ; 46           ; 1                     ; 0                  ; no     ; no             ; no       ; Off          ; 1.8-V        ; Off         ; --                        ; Fitter               ; no        ;
; axi_rdata[21]    ; AC11  ; 2A       ; 38           ; 7            ; 16           ; 1                     ; 0                  ; no     ; no             ; no       ; Off          ; 1.8-V        ; Off         ; --                        ; Fitter               ; no        ;
; axi_rdata[22]    ; AA14  ; 2A       ; 38           ; 15           ; 16           ; 1                     ; 0                  ; no     ; no             ; no       ; Off          ; 1.8-V        ; Off         ; --                        ; Fitter               ; no        ;
; axi_rdata[23]    ; AF16  ; 2A       ; 38           ; 9            ; 46           ; 1                     ; 0                  ; no     ; no             ; no       ; Off          ; 1.8-V        ; Off         ; --                        ; Fitter               ; no        ;
; axi_rdata[24]    ; AB11  ; 2A       ; 38           ; 16           ; 16           ; 1                     ; 0                  ; no     ; no             ; no       ; Off          ; 1.8-V        ; Off         ; --                        ; Fitter               ; no        ;
; axi_rdata[25]    ; AG14  ; 2A       ; 38           ; 6            ; 46           ; 1                     ; 0                  ; no     ; no             ; no       ; Off          ; 1.8-V        ; Off         ; --                        ; Fitter               ; no        ;
; axi_rdata[26]    ; AG15  ; 2A       ; 38           ; 7            ; 46           ; 1                     ; 0                  ; no     ; no             ; no       ; Off          ; 1.8-V        ; Off         ; --                        ; Fitter               ; no        ;
; axi_rdata[27]    ; AA16  ; 2A       ; 38           ; 17           ; 31           ; 1                     ; 0                  ; no     ; no             ; no       ; Off          ; 1.8-V        ; Off         ; --                        ; Fitter               ; no        ;
; axi_rdata[28]    ; AB16  ; 2A       ; 38           ; 16           ; 31           ; 1                     ; 0                  ; no     ; no             ; no       ; Off          ; 1.8-V        ; Off         ; --                        ; Fitter               ; no        ;
; axi_rdata[29]    ; H16   ; 2L       ; 38           ; 98           ; 61           ; 1                     ; 0                  ; no     ; no             ; no       ; Off          ; 1.8-V        ; Off         ; --                        ; Fitter               ; no        ;
; axi_rdata[2]     ; Y16   ; 2A       ; 38           ; 6            ; 31           ; 1                     ; 0                  ; no     ; no             ; no       ; Off          ; 1.8-V        ; Off         ; --                        ; Fitter               ; no        ;
; axi_rdata[30]    ; H21   ; 2L       ; 38           ; 92           ; 31           ; 1                     ; 0                  ; no     ; no             ; no       ; Off          ; 1.8-V        ; Off         ; --                        ; Fitter               ; no        ;
; axi_rdata[31]    ; C18   ; 2L       ; 38           ; 87           ; 16           ; 1                     ; 0                  ; no     ; no             ; no       ; Off          ; 1.8-V        ; Off         ; --                        ; Fitter               ; no        ;
; axi_rdata[3]     ; AE14  ; 2A       ; 38           ; 15           ; 61           ; 1                     ; 0                  ; no     ; no             ; no       ; Off          ; 1.8-V        ; Off         ; --                        ; Fitter               ; no        ;
; axi_rdata[4]     ; AA11  ; 2A       ; 38           ; 17           ; 16           ; 1                     ; 0                  ; no     ; no             ; no       ; Off          ; 1.8-V        ; Off         ; --                        ; Fitter               ; no        ;
; axi_rdata[5]     ; AE15  ; 2A       ; 38           ; 14           ; 61           ; 1                     ; 0                  ; no     ; no             ; no       ; Off          ; 1.8-V        ; Off         ; --                        ; Fitter               ; no        ;
; axi_rdata[6]     ; AD15  ; 2A       ; 38           ; 13           ; 61           ; 1                     ; 0                  ; no     ; no             ; no       ; Off          ; 1.8-V        ; Off         ; --                        ; Fitter               ; no        ;
; axi_rdata[7]     ; AD14  ; 2A       ; 38           ; 7            ; 61           ; 1                     ; 0                  ; no     ; no             ; no       ; Off          ; 1.8-V        ; Off         ; --                        ; Fitter               ; no        ;
; axi_rdata[8]     ; AD17  ; 2A       ; 38           ; 9            ; 31           ; 1                     ; 0                  ; no     ; no             ; no       ; Off          ; 1.8-V        ; Off         ; --                        ; Fitter               ; no        ;
; axi_rdata[9]     ; AA12  ; 2A       ; 38           ; 8            ; 16           ; 1                     ; 0                  ; no     ; no             ; no       ; Off          ; 1.8-V        ; Off         ; --                        ; Fitter               ; no        ;
; axi_rvalid       ; AE12  ; 2A       ; 38           ; 10           ; 61           ; 6                     ; 0                  ; no     ; no             ; no       ; Off          ; 1.8-V        ; Off         ; --                        ; Fitter               ; no        ;
; axi_wready       ; AF19  ; 2A       ; 38           ; 17           ; 46           ; 3                     ; 0                  ; no     ; no             ; no       ; Off          ; 1.8-V        ; Off         ; --                        ; Fitter               ; no        ;
; clk              ; L2    ; 3B       ; 102          ; 33           ; 46           ; 114                   ; 0                  ; yes    ; no             ; no       ; Off          ; 1.8-V        ; Off         ; --                        ; Fitter               ; no        ;
; rst_n            ; AA7   ; 3A       ; 102          ; 7            ; 46           ; 224                   ; 0                  ; yes    ; no             ; no       ; Off          ; 1.8-V        ; Off         ; --                        ; Fitter               ; no        ;
; s_axi_araddr[0]  ; B13   ; 2K       ; 38           ; 65           ; 16           ; 0                     ; 0                  ; no     ; no             ; no       ; Off          ; 1.8-V        ; Off         ; --                        ; Fitter               ; no        ;
; s_axi_araddr[10] ; A21   ; 2K       ; 38           ; 62           ; 31           ; 0                     ; 0                  ; no     ; no             ; no       ; Off          ; 1.8-V        ; Off         ; --                        ; Fitter               ; no        ;
; s_axi_araddr[11] ; B15   ; 2K       ; 38           ; 67           ; 16           ; 0                     ; 0                  ; no     ; no             ; no       ; Off          ; 1.8-V        ; Off         ; --                        ; Fitter               ; no        ;
; s_axi_araddr[12] ; B11   ; 2K       ; 38           ; 61           ; 16           ; 0                     ; 0                  ; no     ; no             ; no       ; Off          ; 1.8-V        ; Off         ; --                        ; Fitter               ; no        ;
; s_axi_araddr[13] ; E14   ; 2K       ; 38           ; 71           ; 16           ; 0                     ; 0                  ; no     ; no             ; no       ; Off          ; 1.8-V        ; Off         ; --                        ; Fitter               ; no        ;
; s_axi_araddr[14] ; A22   ; 2K       ; 38           ; 63           ; 31           ; 0                     ; 0                  ; no     ; no             ; no       ; Off          ; 1.8-V        ; Off         ; --                        ; Fitter               ; no        ;
; s_axi_araddr[15] ; B20   ; 2K       ; 38           ; 62           ; 46           ; 0                     ; 0                  ; no     ; no             ; no       ; Off          ; 1.8-V        ; Off         ; --                        ; Fitter               ; no        ;
; s_axi_araddr[16] ; D15   ; 2K       ; 38           ; 60           ; 46           ; 0                     ; 0                  ; no     ; no             ; no       ; Off          ; 1.8-V        ; Off         ; --                        ; Fitter               ; no        ;
; s_axi_araddr[17] ; E15   ; 2K       ; 38           ; 61           ; 46           ; 0                     ; 0                  ; no     ; no             ; no       ; Off          ; 1.8-V        ; Off         ; --                        ; Fitter               ; no        ;
; s_axi_araddr[18] ; A23   ; 2K       ; 38           ; 71           ; 31           ; 0                     ; 0                  ; no     ; no             ; no       ; Off          ; 1.8-V        ; Off         ; --                        ; Fitter               ; no        ;
; s_axi_araddr[19] ; A24   ; 2K       ; 38           ; 70           ; 31           ; 0                     ; 0                  ; no     ; no             ; no       ; Off          ; 1.8-V        ; Off         ; --                        ; Fitter               ; no        ;
; s_axi_araddr[1]  ; B18   ; 2K       ; 38           ; 65           ; 46           ; 0                     ; 0                  ; no     ; no             ; no       ; Off          ; 1.8-V        ; Off         ; --                        ; Fitter               ; no        ;
; s_axi_araddr[20] ; AC15  ; 2A       ; 38           ; 12           ; 16           ; 0                     ; 0                  ; no     ; no             ; no       ; Off          ; 1.8-V        ; Off         ; --                        ; Fitter               ; no        ;
; s_axi_araddr[21] ; AC13  ; 2A       ; 38           ; 10           ; 16           ; 0                     ; 0                  ; no     ; no             ; no       ; Off          ; 1.8-V        ; Off         ; --                        ; Fitter               ; no        ;
; s_axi_araddr[22] ; AB14  ; 2A       ; 38           ; 14           ; 16           ; 0                     ; 0                  ; no     ; no             ; no       ; Off          ; 1.8-V        ; Off         ; --                        ; Fitter               ; no        ;
; s_axi_araddr[23] ; AG16  ; 2A       ; 38           ; 8            ; 46           ; 0                     ; 0                  ; no     ; no             ; no       ; Off          ; 1.8-V        ; Off         ; --                        ; Fitter               ; no        ;
; s_axi_araddr[24] ; AE11  ; 2A       ; 38           ; 16           ; 61           ; 0                     ; 0                  ; no     ; no             ; no       ; Off          ; 1.8-V        ; Off         ; --                        ; Fitter               ; no        ;
; s_axi_araddr[25] ; AD12  ; 2A       ; 38           ; 11           ; 61           ; 0                     ; 0                  ; no     ; no             ; no       ; Off          ; 1.8-V        ; Off         ; --                        ; Fitter               ; no        ;
; s_axi_araddr[26] ; AE17  ; 2A       ; 38           ; 8            ; 31           ; 0                     ; 0                  ; no     ; no             ; no       ; Off          ; 1.8-V        ; Off         ; --                        ; Fitter               ; no        ;
; s_axi_araddr[27] ; AE20  ; 2A       ; 38           ; 11           ; 46           ; 0                     ; 0                  ; no     ; no             ; no       ; Off          ; 1.8-V        ; Off         ; --                        ; Fitter               ; no        ;
; s_axi_araddr[28] ; Y15   ; 2A       ; 38           ; 7            ; 31           ; 0                     ; 0                  ; no     ; no             ; no       ; Off          ; 1.8-V        ; Off         ; --                        ; Fitter               ; no        ;
; s_axi_araddr[29] ; AF18  ; 2A       ; 38           ; 15           ; 46           ; 0                     ; 0                  ; no     ; no             ; no       ; Off          ; 1.8-V        ; Off         ; --                        ; Fitter               ; no        ;
; s_axi_araddr[2]  ; C12   ; 2K       ; 38           ; 66           ; 61           ; 0                     ; 0                  ; no     ; no             ; no       ; Off          ; 1.8-V        ; Off         ; --                        ; Fitter               ; no        ;
; s_axi_araddr[30] ; AF12  ; 2A       ; 38           ; 8            ; 61           ; 0                     ; 0                  ; no     ; no             ; no       ; Off          ; 1.8-V        ; Off         ; --                        ; Fitter               ; no        ;
; s_axi_araddr[31] ; AA13  ; 2A       ; 38           ; 9            ; 16           ; 0                     ; 0                  ; no     ; no             ; no       ; Off          ; 1.8-V        ; Off         ; --                        ; Fitter               ; no        ;
; s_axi_araddr[3]  ; D10   ; 2K       ; 38           ; 61           ; 61           ; 0                     ; 0                  ; no     ; no             ; no       ; Off          ; 1.8-V        ; Off         ; --                        ; Fitter               ; no        ;
; s_axi_araddr[4]  ; B10   ; 2K       ; 38           ; 68           ; 61           ; 0                     ; 0                  ; no     ; no             ; no       ; Off          ; 1.8-V        ; Off         ; --                        ; Fitter               ; no        ;
; s_axi_araddr[5]  ; D8    ; 2K       ; 38           ; 63           ; 61           ; 0                     ; 0                  ; no     ; no             ; no       ; Off          ; 1.8-V        ; Off         ; --                        ; Fitter               ; no        ;
; s_axi_araddr[6]  ; C13   ; 2K       ; 38           ; 68           ; 16           ; 0                     ; 0                  ; no     ; no             ; no       ; Off          ; 1.8-V        ; Off         ; --                        ; Fitter               ; no        ;
; s_axi_araddr[7]  ; C21   ; 2K       ; 38           ; 69           ; 31           ; 0                     ; 0                  ; no     ; no             ; no       ; Off          ; 1.8-V        ; Off         ; --                        ; Fitter               ; no        ;
; s_axi_araddr[8]  ; A9    ; 2K       ; 38           ; 64           ; 61           ; 0                     ; 0                  ; no     ; no             ; no       ; Off          ; 1.8-V        ; Off         ; --                        ; Fitter               ; no        ;
; s_axi_araddr[9]  ; A11   ; 2K       ; 38           ; 60           ; 16           ; 0                     ; 0                  ; no     ; no             ; no       ; Off          ; 1.8-V        ; Off         ; --                        ; Fitter               ; no        ;
; s_axi_arvalid    ; AE16  ; 2A       ; 38           ; 12           ; 61           ; 0                     ; 0                  ; no     ; no             ; no       ; Off          ; 1.8-V        ; Off         ; --                        ; Fitter               ; no        ;
; s_axi_awaddr[0]  ; A17   ; 2K       ; 38           ; 70           ; 46           ; 0                     ; 0                  ; no     ; no             ; no       ; Off          ; 1.8-V        ; Off         ; --                        ; Fitter               ; no        ;
; s_axi_awaddr[10] ; A14   ; 2K       ; 38           ; 64           ; 16           ; 0                     ; 0                  ; no     ; no             ; no       ; Off          ; 1.8-V        ; Off         ; --                        ; Fitter               ; no        ;
; s_axi_awaddr[11] ; C20   ; 2K       ; 38           ; 63           ; 46           ; 0                     ; 0                  ; no     ; no             ; no       ; Off          ; 1.8-V        ; Off         ; --                        ; Fitter               ; no        ;
; s_axi_awaddr[12] ; B14   ; 2K       ; 38           ; 66           ; 16           ; 0                     ; 0                  ; no     ; no             ; no       ; Off          ; 1.8-V        ; Off         ; --                        ; Fitter               ; no        ;
; s_axi_awaddr[13] ; D13   ; 2K       ; 38           ; 69           ; 16           ; 0                     ; 0                  ; no     ; no             ; no       ; Off          ; 1.8-V        ; Off         ; --                        ; Fitter               ; no        ;
; s_axi_awaddr[14] ; A8    ; 2K       ; 38           ; 65           ; 61           ; 0                     ; 0                  ; no     ; no             ; no       ; Off          ; 1.8-V        ; Off         ; --                        ; Fitter               ; no        ;
; s_axi_awaddr[15] ; B16   ; 2K       ; 38           ; 66           ; 46           ; 0                     ; 0                  ; no     ; no             ; no       ; Off          ; 1.8-V        ; Off         ; --                        ; Fitter               ; no        ;
; s_axi_awaddr[16] ; A26   ; 2K       ; 38           ; 65           ; 31           ; 0                     ; 0                  ; no     ; no             ; no       ; Off          ; 1.8-V        ; Off         ; --                        ; Fitter               ; no        ;
; s_axi_awaddr[17] ; C15   ; 2K       ; 38           ; 67           ; 46           ; 0                     ; 0                  ; no     ; no             ; no       ; Off          ; 1.8-V        ; Off         ; --                        ; Fitter               ; no        ;
; s_axi_awaddr[18] ; A12   ; 2K       ; 38           ; 62           ; 16           ; 0                     ; 0                  ; no     ; no             ; no       ; Off          ; 1.8-V        ; Off         ; --                        ; Fitter               ; no        ;
; s_axi_awaddr[19] ; C8    ; 2K       ; 38           ; 62           ; 61           ; 0                     ; 0                  ; no     ; no             ; no       ; Off          ; 1.8-V        ; Off         ; --                        ; Fitter               ; no        ;
; s_axi_awaddr[1]  ; B24   ; 2K       ; 38           ; 66           ; 31           ; 0                     ; 0                  ; no     ; no             ; no       ; Off          ; 1.8-V        ; Off         ; --                        ; Fitter               ; no        ;
; s_axi_awaddr[20] ; C10   ; 2K       ; 38           ; 69           ; 61           ; 0                     ; 0                  ; no     ; no             ; no       ; Off          ; 1.8-V        ; Off         ; --                        ; Fitter               ; no        ;
; s_axi_awaddr[21] ; B23   ; 2K       ; 38           ; 67           ; 31           ; 0                     ; 0                  ; no     ; no             ; no       ; Off          ; 1.8-V        ; Off         ; --                        ; Fitter               ; no        ;
; s_axi_awaddr[22] ; A19   ; 2K       ; 38           ; 68           ; 46           ; 0                     ; 0                  ; no     ; no             ; no       ; Off          ; 1.8-V        ; Off         ; --                        ; Fitter               ; no        ;
; s_axi_awaddr[23] ; A13   ; 2K       ; 38           ; 63           ; 16           ; 0                     ; 0                  ; no     ; no             ; no       ; Off          ; 1.8-V        ; Off         ; --                        ; Fitter               ; no        ;
; s_axi_awaddr[24] ; B19   ; 2K       ; 38           ; 64           ; 46           ; 0                     ; 0                  ; no     ; no             ; no       ; Off          ; 1.8-V        ; Off         ; --                        ; Fitter               ; no        ;
; s_axi_awaddr[25] ; B9    ; 2K       ; 38           ; 70           ; 61           ; 0                     ; 0                  ; no     ; no             ; no       ; Off          ; 1.8-V        ; Off         ; --                        ; Fitter               ; no        ;
; s_axi_awaddr[26] ; D9    ; 2K       ; 38           ; 60           ; 61           ; 0                     ; 0                  ; no     ; no             ; no       ; Off          ; 1.8-V        ; Off         ; --                        ; Fitter               ; no        ;
; s_axi_awaddr[27] ; A16   ; 2K       ; 38           ; 71           ; 46           ; 0                     ; 0                  ; no     ; no             ; no       ; Off          ; 1.8-V        ; Off         ; --                        ; Fitter               ; no        ;
; s_axi_awaddr[28] ; A27   ; 2K       ; 38           ; 64           ; 31           ; 0                     ; 0                  ; no     ; no             ; no       ; Off          ; 1.8-V        ; Off         ; --                        ; Fitter               ; no        ;
; s_axi_awaddr[29] ; D14   ; 2K       ; 38           ; 70           ; 16           ; 0                     ; 0                  ; no     ; no             ; no       ; Off          ; 1.8-V        ; Off         ; --                        ; Fitter               ; no        ;
; s_axi_awaddr[2]  ; G18   ; 2L       ; 38           ; 89           ; 61           ; 4                     ; 0                  ; no     ; no             ; no       ; Off          ; 1.8-V        ; Off         ; --                        ; Fitter               ; no        ;
; s_axi_awaddr[30] ; B26   ; 2K       ; 38           ; 60           ; 31           ; 0                     ; 0                  ; no     ; no             ; no       ; Off          ; 1.8-V        ; Off         ; --                        ; Fitter               ; no        ;
; s_axi_awaddr[31] ; B8    ; 2K       ; 38           ; 71           ; 61           ; 0                     ; 0                  ; no     ; no             ; no       ; Off          ; 1.8-V        ; Off         ; --                        ; Fitter               ; no        ;
; s_axi_awaddr[3]  ; J22   ; 2L       ; 38           ; 93           ; 31           ; 4                     ; 0                  ; no     ; no             ; no       ; Off          ; 1.8-V        ; Off         ; --                        ; Fitter               ; no        ;
; s_axi_awaddr[4]  ; J18   ; 2L       ; 38           ; 95           ; 61           ; 4                     ; 0                  ; no     ; no             ; no       ; Off          ; 1.8-V        ; Off         ; --                        ; Fitter               ; no        ;
; s_axi_awaddr[5]  ; D22   ; 2L       ; 38           ; 97           ; 46           ; 4                     ; 0                  ; no     ; no             ; no       ; Off          ; 1.8-V        ; Off         ; --                        ; Fitter               ; no        ;
; s_axi_awaddr[6]  ; B25   ; 2K       ; 38           ; 61           ; 31           ; 0                     ; 0                  ; no     ; no             ; no       ; Off          ; 1.8-V        ; Off         ; --                        ; Fitter               ; no        ;
; s_axi_awaddr[7]  ; C11   ; 2K       ; 38           ; 67           ; 61           ; 0                     ; 0                  ; no     ; no             ; no       ; Off          ; 1.8-V        ; Off         ; --                        ; Fitter               ; no        ;
; s_axi_awaddr[8]  ; B21   ; 2K       ; 38           ; 68           ; 31           ; 0                     ; 0                  ; no     ; no             ; no       ; Off          ; 1.8-V        ; Off         ; --                        ; Fitter               ; no        ;
; s_axi_awaddr[9]  ; A18   ; 2K       ; 38           ; 69           ; 46           ; 0                     ; 0                  ; no     ; no             ; no       ; Off          ; 1.8-V        ; Off         ; --                        ; Fitter               ; no        ;
; s_axi_awvalid    ; E20   ; 2L       ; 38           ; 92           ; 16           ; 4                     ; 0                  ; no     ; no             ; no       ; Off          ; 1.8-V        ; Off         ; --                        ; Fitter               ; no        ;
; s_axi_wdata[0]   ; H18   ; 2L       ; 38           ; 90           ; 61           ; 4                     ; 0                  ; no     ; no             ; no       ; Off          ; 1.8-V        ; Off         ; --                        ; Fitter               ; no        ;
; s_axi_wdata[10]  ; K17   ; 2L       ; 38           ; 94           ; 61           ; 3                     ; 0                  ; no     ; no             ; no       ; Off          ; 1.8-V        ; Off         ; --                        ; Fitter               ; no        ;
; s_axi_wdata[11]  ; K19   ; 2L       ; 38           ; 89           ; 31           ; 3                     ; 0                  ; no     ; no             ; no       ; Off          ; 1.8-V        ; Off         ; --                        ; Fitter               ; no        ;
; s_axi_wdata[12]  ; F19   ; 2L       ; 38           ; 94           ; 16           ; 3                     ; 0                  ; no     ; no             ; no       ; Off          ; 1.8-V        ; Off         ; --                        ; Fitter               ; no        ;
; s_axi_wdata[13]  ; J19   ; 2L       ; 38           ; 96           ; 61           ; 3                     ; 0                  ; no     ; no             ; no       ; Off          ; 1.8-V        ; Off         ; --                        ; Fitter               ; no        ;
; s_axi_wdata[14]  ; H22   ; 2L       ; 38           ; 94           ; 31           ; 3                     ; 0                  ; no     ; no             ; no       ; Off          ; 1.8-V        ; Off         ; --                        ; Fitter               ; no        ;
; s_axi_wdata[15]  ; E21   ; 2L       ; 38           ; 98           ; 46           ; 3                     ; 0                  ; no     ; no             ; no       ; Off          ; 1.8-V        ; Off         ; --                        ; Fitter               ; no        ;
; s_axi_wdata[16]  ; C16   ; 2L       ; 38           ; 90           ; 16           ; 3                     ; 0                  ; no     ; no             ; no       ; Off          ; 1.8-V        ; Off         ; --                        ; Fitter               ; no        ;
; s_axi_wdata[17]  ; K23   ; 2L       ; 38           ; 87           ; 31           ; 3                     ; 0                  ; no     ; no             ; no       ; Off          ; 1.8-V        ; Off         ; --                        ; Fitter               ; no        ;
; s_axi_wdata[18]  ; E19   ; 2L       ; 38           ; 93           ; 16           ; 3                     ; 0                  ; no     ; no             ; no       ; Off          ; 1.8-V        ; Off         ; --                        ; Fitter               ; no        ;
; s_axi_wdata[19]  ; K20   ; 2L       ; 38           ; 90           ; 31           ; 3                     ; 0                  ; no     ; no             ; no       ; Off          ; 1.8-V        ; Off         ; --                        ; Fitter               ; no        ;
; s_axi_wdata[1]   ; C23   ; 2L       ; 38           ; 91           ; 46           ; 3                     ; 0                  ; no     ; no             ; no       ; Off          ; 1.8-V        ; Off         ; --                        ; Fitter               ; no        ;
; s_axi_wdata[20]  ; C17   ; 2L       ; 38           ; 89           ; 16           ; 3                     ; 0                  ; no     ; no             ; no       ; Off          ; 1.8-V        ; Off         ; --                        ; Fitter               ; no        ;
; s_axi_wdata[21]  ; F18   ; 2L       ; 38           ; 92           ; 61           ; 3                     ; 0                  ; no     ; no             ; no       ; Off          ; 1.8-V        ; Off         ; --                        ; Fitter               ; no        ;
; s_axi_wdata[22]  ; D17   ; 2L       ; 38           ; 88           ; 16           ; 3                     ; 0                  ; no     ; no             ; no       ; Off          ; 1.8-V        ; Off         ; --                        ; Fitter               ; no        ;
; s_axi_wdata[23]  ; G19   ; 2L       ; 38           ; 88           ; 61           ; 3                     ; 0                  ; no     ; no             ; no       ; Off          ; 1.8-V        ; Off         ; --                        ; Fitter               ; no        ;
; s_axi_wdata[24]  ; E16   ; 2L       ; 38           ; 95           ; 16           ; 3                     ; 0                  ; no     ; no             ; no       ; Off          ; 1.8-V        ; Off         ; --                        ; Fitter               ; no        ;
; s_axi_wdata[25]  ; K22   ; 2L       ; 38           ; 88           ; 31           ; 3                     ; 0                  ; no     ; no             ; no       ; Off          ; 1.8-V        ; Off         ; --                        ; Fitter               ; no        ;
; s_axi_wdata[26]  ; E22   ; 2L       ; 38           ; 93           ; 46           ; 3                     ; 0                  ; no     ; no             ; no       ; Off          ; 1.8-V        ; Off         ; --                        ; Fitter               ; no        ;
; s_axi_wdata[27]  ; D20   ; 2L       ; 38           ; 91           ; 16           ; 3                     ; 0                  ; no     ; no             ; no       ; Off          ; 1.8-V        ; Off         ; --                        ; Fitter               ; no        ;
; s_axi_wdata[28]  ; D18   ; 2L       ; 38           ; 98           ; 16           ; 3                     ; 0                  ; no     ; no             ; no       ; Off          ; 1.8-V        ; Off         ; --                        ; Fitter               ; no        ;
; s_axi_wdata[29]  ; H17   ; 2L       ; 38           ; 97           ; 61           ; 3                     ; 0                  ; no     ; no             ; no       ; Off          ; 1.8-V        ; Off         ; --                        ; Fitter               ; no        ;
; s_axi_wdata[2]   ; F17   ; 2L       ; 38           ; 91           ; 61           ; 3                     ; 0                  ; no     ; no             ; no       ; Off          ; 1.8-V        ; Off         ; --                        ; Fitter               ; no        ;
; s_axi_wdata[30]  ; E23   ; 2L       ; 38           ; 96           ; 46           ; 3                     ; 0                  ; no     ; no             ; no       ; Off          ; 1.8-V        ; Off         ; --                        ; Fitter               ; no        ;
; s_axi_wdata[31]  ; G20   ; 2L       ; 38           ; 87           ; 61           ; 3                     ; 0                  ; no     ; no             ; no       ; Off          ; 1.8-V        ; Off         ; --                        ; Fitter               ; no        ;
; s_axi_wdata[3]   ; E17   ; 2L       ; 38           ; 96           ; 16           ; 3                     ; 0                  ; no     ; no             ; no       ; Off          ; 1.8-V        ; Off         ; --                        ; Fitter               ; no        ;
; s_axi_wdata[4]   ; K21   ; 2L       ; 38           ; 96           ; 31           ; 3                     ; 0                  ; no     ; no             ; no       ; Off          ; 1.8-V        ; Off         ; --                        ; Fitter               ; no        ;
; s_axi_wdata[5]   ; C22   ; 2L       ; 38           ; 92           ; 46           ; 3                     ; 0                  ; no     ; no             ; no       ; Off          ; 1.8-V        ; Off         ; --                        ; Fitter               ; no        ;
; s_axi_wdata[6]   ; D19   ; 2L       ; 38           ; 97           ; 16           ; 3                     ; 0                  ; no     ; no             ; no       ; Off          ; 1.8-V        ; Off         ; --                        ; Fitter               ; no        ;
; s_axi_wdata[7]   ; J20   ; 2L       ; 38           ; 95           ; 31           ; 3                     ; 0                  ; no     ; no             ; no       ; Off          ; 1.8-V        ; Off         ; --                        ; Fitter               ; no        ;
; s_axi_wdata[8]   ; H20   ; 2L       ; 38           ; 91           ; 31           ; 3                     ; 0                  ; no     ; no             ; no       ; Off          ; 1.8-V        ; Off         ; --                        ; Fitter               ; no        ;
; s_axi_wdata[9]   ; J17   ; 2L       ; 38           ; 93           ; 61           ; 3                     ; 0                  ; no     ; no             ; no       ; Off          ; 1.8-V        ; Off         ; --                        ; Fitter               ; no        ;
; s_axi_wvalid     ; G21   ; 2L       ; 38           ; 90           ; 46           ; 4                     ; 0                  ; no     ; no             ; no       ; Off          ; 1.8-V        ; Off         ; --                        ; Fitter               ; no        ;
+------------------+-------+----------+--------------+--------------+--------------+-----------------------+--------------------+--------+----------------+----------+--------------+--------------+-------------+---------------------------+----------------------+-----------+


+--------------------------------------------------------------------------------------------------------------------------------------------------------------------------------------------------------------------------------------------------------------------------------------------------------------------------------------------------------------------------------------------------------------------------------+
; Output Pins                                                                                                                                                                                                                                                                                                                                                                                                                    ;
+-----------------+-------+----------+--------------+--------------+--------------+-----------------+------------------------+-----------+------------+---------------+----------+--------------+--------------+------------------+-----------------------------------+---------------------------+----------------------------+-----------------------------+----------------------+----------------------+---------------------+
; Name            ; Pin # ; I/O Bank ; X coordinate ; Y coordinate ; Z coordinate ; Output Register ; Output Enable Register ; Slew Rate ; Open Drain ; TRI Primitive ; Bus Hold ; Weak Pull Up ; I/O Standard ; Current Strength ; Termination                       ; Termination Control Block ; Output Buffer Pre-emphasis ; Voltage Output Differential ; Location assigned by ; Output Enable Source ; Output Enable Group ;
+-----------------+-------+----------+--------------+--------------+--------------+-----------------+------------------------+-----------+------------+---------------+----------+--------------+--------------+------------------+-----------------------------------+---------------------------+----------------------------+-----------------------------+----------------------+----------------------+---------------------+
; axi_araddr[0]   ; AB4   ; 3A       ; 102          ; 17           ; 46           ; no              ; no                     ; 1         ; no         ; no            ; no       ; Off          ; 1.8-V        ; Default          ; Series 50 Ohm without Calibration ; --                        ; no                         ; no                          ; Fitter               ; -                    ; -                   ;
; axi_araddr[10]  ; M4    ; 3B       ; 102          ; 44           ; 46           ; no              ; no                     ; 1         ; no         ; no            ; no       ; Off          ; 1.8-V        ; Default          ; Series 50 Ohm without Calibration ; --                        ; no                         ; no                          ; Fitter               ; -                    ; -                   ;
; axi_araddr[11]  ; V7    ; 3B       ; 102          ; 40           ; 16           ; no              ; no                     ; 1         ; no         ; no            ; no       ; Off          ; 1.8-V        ; Default          ; Series 50 Ohm without Calibration ; --                        ; no                         ; no                          ; Fitter               ; -                    ; -                   ;
; axi_araddr[12]  ; T4    ; 3B       ; 102          ; 35           ; 61           ; no              ; no                     ; 1         ; no         ; no            ; no       ; Off          ; 1.8-V        ; Default          ; Series 50 Ohm without Calibration ; --                        ; no                         ; no                          ; Fitter               ; -                    ; -                   ;
; axi_araddr[13]  ; T1    ; 3B       ; 102          ; 33           ; 31           ; no              ; no                     ; 1         ; no         ; no            ; no       ; Off          ; 1.8-V        ; Default          ; Series 50 Ohm without Calibration ; --                        ; no                         ; no                          ; Fitter               ; -                    ; -                   ;
; axi_araddr[14]  ; G1    ; 3B       ; 102          ; 42           ; 31           ; no              ; no                     ; 1         ; no         ; no            ; no       ; Off          ; 1.8-V        ; Default          ; Series 50 Ohm without Calibration ; --                        ; no                         ; no                          ; Fitter               ; -                    ; -                   ;
; axi_araddr[15]  ; T2    ; 3B       ; 102          ; 37           ; 31           ; no              ; no                     ; 1         ; no         ; no            ; no       ; Off          ; 1.8-V        ; Default          ; Series 50 Ohm without Calibration ; --                        ; no                         ; no                          ; Fitter               ; -                    ; -                   ;
; axi_araddr[16]  ; V3    ; 3B       ; 102          ; 34           ; 16           ; no              ; no                     ; 1         ; no         ; no            ; no       ; Off          ; 1.8-V        ; Default          ; Series 50 Ohm without Calibration ; --                        ; no                         ; no                          ; Fitter               ; -                    ; -                   ;
; axi_araddr[17]  ; U3    ; 3B       ; 102          ; 43           ; 16           ; no              ; no                     ; 1         ; no         ; no            ; no       ; Off          ; 1.8-V        ; Default          ; Series 50 Ohm without Calibration ; --                        ; no                         ; no                          ; Fitter               ; -                    ; -                   ;
; axi_araddr[18]  ; T8    ; 3B       ; 102          ; 41           ; 61           ; no              ; no                     ; 1         ; no         ; no            ; no       ; Off          ; 1.8-V        ; Default          ; Series 50 Ohm without Calibration ; --                        ; no                         ; no                          ; Fitter               ; -                    ; -                   ;
; axi_araddr[19]  ; H2    ; 3B       ; 102          ; 37           ; 46           ; no              ; no                     ; 1         ; no         ; no            ; no       ; Off          ; 1.8-V        ; Default          ; Series 50 Ohm without Calibration ; --                        ; no                         ; no                          ; Fitter               ; -                    ; -                   ;
; axi_araddr[1]   ; AB6   ; 3A       ; 102          ; 12           ; 46           ; no              ; no                     ; 1         ; no         ; no            ; no       ; Off          ; 1.8-V        ; Default          ; Series 50 Ohm without Calibration ; --                        ; no                         ; no                          ; Fitter               ; -                    ; -                   ;
; axi_araddr[20]  ; J2    ; 3B       ; 102          ; 36           ; 46           ; no              ; no                     ; 1         ; no         ; no            ; no       ; Off          ; 1.8-V        ; Default          ; Series 50 Ohm without Calibration ; --                        ; no                         ; no                          ; Fitter               ; -                    ; -                   ;
; axi_araddr[21]  ; W3    ; 3B       ; 102          ; 33           ; 16           ; no              ; no                     ; 1         ; no         ; no            ; no       ; Off          ; 1.8-V        ; Default          ; Series 50 Ohm without Calibration ; --                        ; no                         ; no                          ; Fitter               ; -                    ; -                   ;
; axi_araddr[22]  ; V8    ; 3B       ; 102          ; 34           ; 61           ; no              ; no                     ; 1         ; no         ; no            ; no       ; Off          ; 1.8-V        ; Default          ; Series 50 Ohm without Calibration ; --                        ; no                         ; no                          ; Fitter               ; -                    ; -                   ;
; axi_araddr[23]  ; L4    ; 3B       ; 102          ; 42           ; 46           ; no              ; no                     ; 1         ; no         ; no            ; no       ; Off          ; 1.8-V        ; Default          ; Series 50 Ohm without Calibration ; --                        ; no                         ; no                          ; Fitter               ; -                    ; -                   ;
; axi_araddr[24]  ; U1    ; 3B       ; 102          ; 42           ; 16           ; no              ; no                     ; 1         ; no         ; no            ; no       ; Off          ; 1.8-V        ; Default          ; Series 50 Ohm without Calibration ; --                        ; no                         ; no                          ; Fitter               ; -                    ; -                   ;
; axi_araddr[25]  ; M3    ; 3B       ; 102          ; 43           ; 46           ; no              ; no                     ; 1         ; no         ; no            ; no       ; Off          ; 1.8-V        ; Default          ; Series 50 Ohm without Calibration ; --                        ; no                         ; no                          ; Fitter               ; -                    ; -                   ;
; axi_araddr[26]  ; P3    ; 3B       ; 102          ; 43           ; 61           ; no              ; no                     ; 1         ; no         ; no            ; no       ; Off          ; 1.8-V        ; Default          ; Series 50 Ohm without Calibration ; --                        ; no                         ; no                          ; Fitter               ; -                    ; -                   ;
; axi_araddr[27]  ; T3    ; 3B       ; 102          ; 38           ; 31           ; no              ; no                     ; 1         ; no         ; no            ; no       ; Off          ; 1.8-V        ; Default          ; Series 50 Ohm without Calibration ; --                        ; no                         ; no                          ; Fitter               ; -                    ; -                   ;
; axi_araddr[28]  ; V5    ; 3B       ; 102          ; 37           ; 16           ; no              ; no                     ; 1         ; no         ; no            ; no       ; Off          ; 1.8-V        ; Default          ; Series 50 Ohm without Calibration ; --                        ; no                         ; no                          ; Fitter               ; -                    ; -                   ;
; axi_araddr[29]  ; T7    ; 3B       ; 102          ; 40           ; 61           ; no              ; no                     ; 1         ; no         ; no            ; no       ; Off          ; 1.8-V        ; Default          ; Series 50 Ohm without Calibration ; --                        ; no                         ; no                          ; Fitter               ; -                    ; -                   ;
; axi_araddr[2]   ; AA3   ; 3A       ; 102          ; 8            ; 46           ; no              ; no                     ; 1         ; no         ; no            ; no       ; Off          ; 1.8-V        ; Default          ; Series 50 Ohm without Calibration ; --                        ; no                         ; no                          ; Fitter               ; -                    ; -                   ;
; axi_araddr[30]  ; V2    ; 3B       ; 102          ; 36           ; 16           ; no              ; no                     ; 1         ; no         ; no            ; no       ; Off          ; 1.8-V        ; Default          ; Series 50 Ohm without Calibration ; --                        ; no                         ; no                          ; Fitter               ; -                    ; -                   ;
; axi_araddr[31]  ; R1    ; 3B       ; 102          ; 34           ; 31           ; no              ; no                     ; 1         ; no         ; no            ; no       ; Off          ; 1.8-V        ; Default          ; Series 50 Ohm without Calibration ; --                        ; no                         ; no                          ; Fitter               ; -                    ; -                   ;
; axi_araddr[3]   ; AA6   ; 3A       ; 102          ; 6            ; 46           ; no              ; no                     ; 1         ; no         ; no            ; no       ; Off          ; 1.8-V        ; Default          ; Series 50 Ohm without Calibration ; --                        ; no                         ; no                          ; Fitter               ; -                    ; -                   ;
; axi_araddr[4]   ; AC3   ; 3A       ; 102          ; 17           ; 31           ; no              ; no                     ; 1         ; no         ; no            ; no       ; Off          ; 1.8-V        ; Default          ; Series 50 Ohm without Calibration ; --                        ; no                         ; no                          ; Fitter               ; -                    ; -                   ;
; axi_araddr[5]   ; AD3   ; 3A       ; 102          ; 16           ; 31           ; no              ; no                     ; 1         ; no         ; no            ; no       ; Off          ; 1.8-V        ; Default          ; Series 50 Ohm without Calibration ; --                        ; no                         ; no                          ; Fitter               ; -                    ; -                   ;
; axi_araddr[6]   ; U5    ; 3B       ; 102          ; 36           ; 61           ; no              ; no                     ; 1         ; no         ; no            ; no       ; Off          ; 1.8-V        ; Default          ; Series 50 Ohm without Calibration ; --                        ; no                         ; no                          ; Fitter               ; -                    ; -                   ;
; axi_araddr[7]   ; T9    ; 3B       ; 102          ; 42           ; 61           ; no              ; no                     ; 1         ; no         ; no            ; no       ; Off          ; 1.8-V        ; Default          ; Series 50 Ohm without Calibration ; --                        ; no                         ; no                          ; Fitter               ; -                    ; -                   ;
; axi_araddr[8]   ; J3    ; 3B       ; 102          ; 38           ; 46           ; no              ; no                     ; 1         ; no         ; no            ; no       ; Off          ; 1.8-V        ; Default          ; Series 50 Ohm without Calibration ; --                        ; no                         ; no                          ; Fitter               ; -                    ; -                   ;
; axi_araddr[9]   ; U8    ; 3B       ; 102          ; 33           ; 61           ; no              ; no                     ; 1         ; no         ; no            ; no       ; Off          ; 1.8-V        ; Default          ; Series 50 Ohm without Calibration ; --                        ; no                         ; no                          ; Fitter               ; -                    ; -                   ;
; axi_arvalid     ; N3    ; 3B       ; 102          ; 40           ; 46           ; no              ; no                     ; 1         ; no         ; no            ; no       ; Off          ; 1.8-V        ; Default          ; Series 50 Ohm without Calibration ; --                        ; no                         ; no                          ; Fitter               ; -                    ; -                   ;
; axi_awaddr[0]   ; R5    ; 3B       ; 102          ; 38           ; 61           ; no              ; no                     ; 1         ; no         ; no            ; no       ; Off          ; 1.8-V        ; Default          ; Series 50 Ohm without Calibration ; --                        ; no                         ; no                          ; Fitter               ; -                    ; -                   ;
; axi_awaddr[10]  ; R4    ; 3B       ; 102          ; 37           ; 61           ; no              ; no                     ; 1         ; no         ; no            ; no       ; Off          ; 1.8-V        ; Default          ; Series 50 Ohm without Calibration ; --                        ; no                         ; no                          ; Fitter               ; -                    ; -                   ;
; axi_awaddr[11]  ; W2    ; 3B       ; 102          ; 35           ; 16           ; no              ; no                     ; 1         ; no         ; no            ; no       ; Off          ; 1.8-V        ; Default          ; Series 50 Ohm without Calibration ; --                        ; no                         ; no                          ; Fitter               ; -                    ; -                   ;
; axi_awaddr[12]  ; H1    ; 3B       ; 102          ; 41           ; 31           ; no              ; no                     ; 1         ; no         ; no            ; no       ; Off          ; 1.8-V        ; Default          ; Series 50 Ohm without Calibration ; --                        ; no                         ; no                          ; Fitter               ; -                    ; -                   ;
; axi_awaddr[13]  ; V1    ; 3B       ; 102          ; 41           ; 16           ; no              ; no                     ; 1         ; no         ; no            ; no       ; Off          ; 1.8-V        ; Default          ; Series 50 Ohm without Calibration ; --                        ; no                         ; no                          ; Fitter               ; -                    ; -                   ;
; axi_awaddr[14]  ; U6    ; 3B       ; 102          ; 39           ; 16           ; no              ; no                     ; 1         ; no         ; no            ; no       ; Off          ; 1.8-V        ; Default          ; Series 50 Ohm without Calibration ; --                        ; no                         ; no                          ; Fitter               ; -                    ; -                   ;
; axi_awaddr[15]  ; K2    ; 3B       ; 102          ; 35           ; 46           ; no              ; no                     ; 1         ; no         ; no            ; no       ; Off          ; 1.8-V        ; Default          ; Series 50 Ohm without Calibration ; --                        ; no                         ; no                          ; Fitter               ; -                    ; -                   ;
; axi_awaddr[16]  ; L3    ; 3B       ; 102          ; 34           ; 46           ; no              ; no                     ; 1         ; no         ; no            ; no       ; Off          ; 1.8-V        ; Default          ; Series 50 Ohm without Calibration ; --                        ; no                         ; no                          ; Fitter               ; -                    ; -                   ;
; axi_awaddr[17]  ; M1    ; 3B       ; 102          ; 44           ; 31           ; no              ; no                     ; 1         ; no         ; no            ; no       ; Off          ; 1.8-V        ; Default          ; Series 50 Ohm without Calibration ; --                        ; no                         ; no                          ; Fitter               ; -                    ; -                   ;
; axi_awaddr[18]  ; N1    ; 3B       ; 102          ; 43           ; 31           ; no              ; no                     ; 1         ; no         ; no            ; no       ; Off          ; 1.8-V        ; Default          ; Series 50 Ohm without Calibration ; --                        ; no                         ; no                          ; Fitter               ; -                    ; -                   ;
; axi_awaddr[19]  ; AB21  ; 2J       ; 38           ; 40           ; 31           ; no              ; no                     ; 1         ; no         ; no            ; no       ; Off          ; 1.8-V        ; Default          ; Series 50 Ohm without Calibration ; --                        ; no                         ; no                          ; Fitter               ; -                    ; -                   ;
; axi_awaddr[1]   ; N2    ; 3B       ; 102          ; 39           ; 46           ; no              ; no                     ; 1         ; no         ; no            ; no       ; Off          ; 1.8-V        ; Default          ; Series 50 Ohm without Calibration ; --                        ; no                         ; no                          ; Fitter               ; -                    ; -                   ;
; axi_awaddr[20]  ; AC22  ; 2J       ; 38           ; 34           ; 16           ; no              ; no                     ; 1         ; no         ; no            ; no       ; Off          ; 1.8-V        ; Default          ; Series 50 Ohm without Calibration ; --                        ; no                         ; no                          ; Fitter               ; -                    ; -                   ;
; axi_awaddr[21]  ; AC21  ; 2J       ; 38           ; 39           ; 31           ; no              ; no                     ; 1         ; no         ; no            ; no       ; Off          ; 1.8-V        ; Default          ; Series 50 Ohm without Calibration ; --                        ; no                         ; no                          ; Fitter               ; -                    ; -                   ;
; axi_awaddr[22]  ; AG9   ; 2J       ; 38           ; 44           ; 61           ; no              ; no                     ; 1         ; no         ; no            ; no       ; Off          ; 1.8-V        ; Default          ; Series 50 Ohm without Calibration ; --                        ; no                         ; no                          ; Fitter               ; -                    ; -                   ;
; axi_awaddr[23]  ; AE23  ; 2J       ; 38           ; 41           ; 16           ; no              ; no                     ; 1         ; no         ; no            ; no       ; Off          ; 1.8-V        ; Default          ; Series 50 Ohm without Calibration ; --                        ; no                         ; no                          ; Fitter               ; -                    ; -                   ;
; axi_awaddr[24]  ; AG11  ; 2J       ; 38           ; 36           ; 61           ; no              ; no                     ; 1         ; no         ; no            ; no       ; Off          ; 1.8-V        ; Default          ; Series 50 Ohm without Calibration ; --                        ; no                         ; no                          ; Fitter               ; -                    ; -                   ;
; axi_awaddr[25]  ; AH21  ; 2J       ; 38           ; 41           ; 31           ; no              ; no                     ; 1         ; no         ; no            ; no       ; Off          ; 1.8-V        ; Default          ; Series 50 Ohm without Calibration ; --                        ; no                         ; no                          ; Fitter               ; -                    ; -                   ;
; axi_awaddr[26]  ; AA17  ; 2J       ; 38           ; 37           ; 46           ; no              ; no                     ; 1         ; no         ; no            ; no       ; Off          ; 1.8-V        ; Default          ; Series 50 Ohm without Calibration ; --                        ; no                         ; no                          ; Fitter               ; -                    ; -                   ;
; axi_awaddr[27]  ; AH18  ; 2J       ; 38           ; 41           ; 61           ; no              ; no                     ; 1         ; no         ; no            ; no       ; Off          ; 1.8-V        ; Default          ; Series 50 Ohm without Calibration ; --                        ; no                         ; no                          ; Fitter               ; -                    ; -                   ;
; axi_awaddr[28]  ; AB19  ; 2J       ; 38           ; 40           ; 46           ; no              ; no                     ; 1         ; no         ; no            ; no       ; Off          ; 1.8-V        ; Default          ; Series 50 Ohm without Calibration ; --                        ; no                         ; no                          ; Fitter               ; -                    ; -                   ;
; axi_awaddr[29]  ; AG19  ; 2J       ; 38           ; 33           ; 31           ; no              ; no                     ; 1         ; no         ; no            ; no       ; Off          ; 1.8-V        ; Default          ; Series 50 Ohm without Calibration ; --                        ; no                         ; no                          ; Fitter               ; -                    ; -                   ;
; axi_awaddr[2]   ; L1    ; 3B       ; 102          ; 35           ; 31           ; no              ; no                     ; 1         ; no         ; no            ; no       ; Off          ; 1.8-V        ; Default          ; Series 50 Ohm without Calibration ; --                        ; no                         ; no                          ; Fitter               ; -                    ; -                   ;
; axi_awaddr[30]  ; Y21   ; 2J       ; 38           ; 44           ; 46           ; no              ; no                     ; 1         ; no         ; no            ; no       ; Off          ; 1.8-V        ; Default          ; Series 50 Ohm without Calibration ; --                        ; no                         ; no                          ; Fitter               ; -                    ; -                   ;
; axi_awaddr[31]  ; AH15  ; 2J       ; 38           ; 40           ; 61           ; no              ; no                     ; 1         ; no         ; no            ; no       ; Off          ; 1.8-V        ; Default          ; Series 50 Ohm without Calibration ; --                        ; no                         ; no                          ; Fitter               ; -                    ; -                   ;
; axi_awaddr[3]   ; P2    ; 3B       ; 102          ; 40           ; 31           ; no              ; no                     ; 1         ; no         ; no            ; no       ; Off          ; 1.8-V        ; Default          ; Series 50 Ohm without Calibration ; --                        ; no                         ; no                          ; Fitter               ; -                    ; -                   ;
; axi_awaddr[4]   ; V6    ; 3B       ; 102          ; 38           ; 16           ; no              ; no                     ; 1         ; no         ; no            ; no       ; Off          ; 1.8-V        ; Default          ; Series 50 Ohm without Calibration ; --                        ; no                         ; no                          ; Fitter               ; -                    ; -                   ;
; axi_awaddr[5]   ; K1    ; 3B       ; 102          ; 36           ; 31           ; no              ; no                     ; 1         ; no         ; no            ; no       ; Off          ; 1.8-V        ; Default          ; Series 50 Ohm without Calibration ; --                        ; no                         ; no                          ; Fitter               ; -                    ; -                   ;
; axi_awaddr[6]   ; T6    ; 3B       ; 102          ; 39           ; 61           ; no              ; no                     ; 1         ; no         ; no            ; no       ; Off          ; 1.8-V        ; Default          ; Series 50 Ohm without Calibration ; --                        ; no                         ; no                          ; Fitter               ; -                    ; -                   ;
; axi_awaddr[7]   ; R2    ; 3B       ; 102          ; 39           ; 31           ; no              ; no                     ; 1         ; no         ; no            ; no       ; Off          ; 1.8-V        ; Default          ; Series 50 Ohm without Calibration ; --                        ; no                         ; no                          ; Fitter               ; -                    ; -                   ;
; axi_awaddr[8]   ; K4    ; 3B       ; 102          ; 41           ; 46           ; no              ; no                     ; 1         ; no         ; no            ; no       ; Off          ; 1.8-V        ; Default          ; Series 50 Ohm without Calibration ; --                        ; no                         ; no                          ; Fitter               ; -                    ; -                   ;
; axi_awaddr[9]   ; P4    ; 3B       ; 102          ; 44           ; 61           ; no              ; no                     ; 1         ; no         ; no            ; no       ; Off          ; 1.8-V        ; Default          ; Series 50 Ohm without Calibration ; --                        ; no                         ; no                          ; Fitter               ; -                    ; -                   ;
; axi_awvalid     ; AH16  ; 2J       ; 38           ; 39           ; 61           ; no              ; no                     ; 1         ; no         ; no            ; no       ; Off          ; 1.8-V        ; Default          ; Series 50 Ohm without Calibration ; --                        ; no                         ; no                          ; Fitter               ; -                    ; -                   ;
; axi_bready      ; AC20  ; 2J       ; 38           ; 43           ; 31           ; no              ; no                     ; 1         ; no         ; no            ; no       ; Off          ; 1.8-V        ; Default          ; Series 50 Ohm without Calibration ; --                        ; no                         ; no                          ; Fitter               ; -                    ; -                   ;
; axi_rready      ; U4    ; 3B       ; 102          ; 44           ; 16           ; no              ; no                     ; 1         ; no         ; no            ; no       ; Off          ; 1.8-V        ; Default          ; Series 50 Ohm without Calibration ; --                        ; no                         ; no                          ; Fitter               ; -                    ; -                   ;
; axi_wdata[0]    ; AB23  ; 2J       ; 38           ; 38           ; 16           ; no              ; no                     ; 1         ; no         ; no            ; no       ; Off          ; 1.8-V        ; Default          ; Series 50 Ohm without Calibration ; --                        ; no                         ; no                          ; Fitter               ; -                    ; -                   ;
; axi_wdata[10]   ; AH22  ; 2J       ; 38           ; 35           ; 31           ; no              ; no                     ; 1         ; no         ; no            ; no       ; Off          ; 1.8-V        ; Default          ; Series 50 Ohm without Calibration ; --                        ; no                         ; no                          ; Fitter               ; -                    ; -                   ;
; axi_wdata[11]   ; AH12  ; 2J       ; 38           ; 35           ; 61           ; no              ; no                     ; 1         ; no         ; no            ; no       ; Off          ; 1.8-V        ; Default          ; Series 50 Ohm without Calibration ; --                        ; no                         ; no                          ; Fitter               ; -                    ; -                   ;
; axi_wdata[12]   ; AD22  ; 2J       ; 38           ; 33           ; 16           ; no              ; no                     ; 1         ; no         ; no            ; no       ; Off          ; 1.8-V        ; Default          ; Series 50 Ohm without Calibration ; --                        ; no                         ; no                          ; Fitter               ; -                    ; -                   ;
; axi_wdata[13]   ; AH11  ; 2J       ; 38           ; 37           ; 61           ; no              ; no                     ; 1         ; no         ; no            ; no       ; Off          ; 1.8-V        ; Default          ; Series 50 Ohm without Calibration ; --                        ; no                         ; no                          ; Fitter               ; -                    ; -                   ;
; axi_wdata[14]   ; AF21  ; 2J       ; 38           ; 37           ; 31           ; no              ; no                     ; 1         ; no         ; no            ; no       ; Off          ; 1.8-V        ; Default          ; Series 50 Ohm without Calibration ; --                        ; no                         ; no                          ; Fitter               ; -                    ; -                   ;
; axi_wdata[15]   ; AH20  ; 2J       ; 38           ; 42           ; 31           ; no              ; no                     ; 1         ; no         ; no            ; no       ; Off          ; 1.8-V        ; Default          ; Series 50 Ohm without Calibration ; --                        ; no                         ; no                          ; Fitter               ; -                    ; -                   ;
; axi_wdata[16]   ; AC23  ; 2J       ; 38           ; 37           ; 16           ; no              ; no                     ; 1         ; no         ; no            ; no       ; Off          ; 1.8-V        ; Default          ; Series 50 Ohm without Calibration ; --                        ; no                         ; no                          ; Fitter               ; -                    ; -                   ;
; axi_wdata[17]   ; AE22  ; 2J       ; 38           ; 36           ; 16           ; no              ; no                     ; 1         ; no         ; no            ; no       ; Off          ; 1.8-V        ; Default          ; Series 50 Ohm without Calibration ; --                        ; no                         ; no                          ; Fitter               ; -                    ; -                   ;
; axi_wdata[18]   ; AA23  ; 2J       ; 38           ; 39           ; 16           ; no              ; no                     ; 1         ; no         ; no            ; no       ; Off          ; 1.8-V        ; Default          ; Series 50 Ohm without Calibration ; --                        ; no                         ; no                          ; Fitter               ; -                    ; -                   ;
; axi_wdata[19]   ; AH10  ; 2J       ; 38           ; 38           ; 61           ; no              ; no                     ; 1         ; no         ; no            ; no       ; Off          ; 1.8-V        ; Default          ; Series 50 Ohm without Calibration ; --                        ; no                         ; no                          ; Fitter               ; -                    ; -                   ;
; axi_wdata[1]    ; AE21  ; 2J       ; 38           ; 38           ; 31           ; no              ; no                     ; 1         ; no         ; no            ; no       ; Off          ; 1.8-V        ; Default          ; Series 50 Ohm without Calibration ; --                        ; no                         ; no                          ; Fitter               ; -                    ; -                   ;
; axi_wdata[20]   ; AA22  ; 2J       ; 38           ; 40           ; 16           ; no              ; no                     ; 1         ; no         ; no            ; no       ; Off          ; 1.8-V        ; Default          ; Series 50 Ohm without Calibration ; --                        ; no                         ; no                          ; Fitter               ; -                    ; -                   ;
; axi_wdata[21]   ; Y19   ; 2J       ; 38           ; 36           ; 46           ; no              ; no                     ; 1         ; no         ; no            ; no       ; Off          ; 1.8-V        ; Default          ; Series 50 Ohm without Calibration ; --                        ; no                         ; no                          ; Fitter               ; -                    ; -                   ;
; axi_wdata[22]   ; AH13  ; 2J       ; 38           ; 33           ; 61           ; no              ; no                     ; 1         ; no         ; no            ; no       ; Off          ; 1.8-V        ; Default          ; Series 50 Ohm without Calibration ; --                        ; no                         ; no                          ; Fitter               ; -                    ; -                   ;
; axi_wdata[23]   ; AG20  ; 2J       ; 38           ; 34           ; 31           ; no              ; no                     ; 1         ; no         ; no            ; no       ; Off          ; 1.8-V        ; Default          ; Series 50 Ohm without Calibration ; --                        ; no                         ; no                          ; Fitter               ; -                    ; -                   ;
; axi_wdata[24]   ; AA21  ; 2J       ; 38           ; 43           ; 46           ; no              ; no                     ; 1         ; no         ; no            ; no       ; Off          ; 1.8-V        ; Default          ; Series 50 Ohm without Calibration ; --                        ; no                         ; no                          ; Fitter               ; -                    ; -                   ;
; axi_wdata[25]   ; AG23  ; 2J       ; 38           ; 43           ; 16           ; no              ; no                     ; 1         ; no         ; no            ; no       ; Off          ; 1.8-V        ; Default          ; Series 50 Ohm without Calibration ; --                        ; no                         ; no                          ; Fitter               ; -                    ; -                   ;
; axi_wdata[26]   ; AF23  ; 2J       ; 38           ; 44           ; 16           ; no              ; no                     ; 1         ; no         ; no            ; no       ; Off          ; 1.8-V        ; Default          ; Series 50 Ohm without Calibration ; --                        ; no                         ; no                          ; Fitter               ; -                    ; -                   ;
; axi_wdata[27]   ; AB18  ; 2J       ; 38           ; 39           ; 46           ; no              ; no                     ; 1         ; no         ; no            ; no       ; Off          ; 1.8-V        ; Default          ; Series 50 Ohm without Calibration ; --                        ; no                         ; no                          ; Fitter               ; -                    ; -                   ;
; axi_wdata[28]   ; W20   ; 2J       ; 38           ; 41           ; 46           ; no              ; no                     ; 1         ; no         ; no            ; no       ; Off          ; 1.8-V        ; Default          ; Series 50 Ohm without Calibration ; --                        ; no                         ; no                          ; Fitter               ; -                    ; -                   ;
; axi_wdata[29]   ; Y20   ; 2J       ; 38           ; 35           ; 46           ; no              ; no                     ; 1         ; no         ; no            ; no       ; Off          ; 1.8-V        ; Default          ; Series 50 Ohm without Calibration ; --                        ; no                         ; no                          ; Fitter               ; -                    ; -                   ;
; axi_wdata[2]    ; AG10  ; 2J       ; 38           ; 43           ; 61           ; no              ; no                     ; 1         ; no         ; no            ; no       ; Off          ; 1.8-V        ; Default          ; Series 50 Ohm without Calibration ; --                        ; no                         ; no                          ; Fitter               ; -                    ; -                   ;
; axi_wdata[30]   ; AA19  ; 2J       ; 38           ; 34           ; 46           ; no              ; no                     ; 1         ; no         ; no            ; no       ; Off          ; 1.8-V        ; Default          ; Series 50 Ohm without Calibration ; --                        ; no                         ; no                          ; Fitter               ; -                    ; -                   ;
; axi_wdata[31]   ; AA18  ; 2J       ; 38           ; 33           ; 46           ; no              ; no                     ; 1         ; no         ; no            ; no       ; Off          ; 1.8-V        ; Default          ; Series 50 Ohm without Calibration ; --                        ; no                         ; no                          ; Fitter               ; -                    ; -                   ;
; axi_wdata[3]    ; Y17   ; 2J       ; 38           ; 38           ; 46           ; no              ; no                     ; 1         ; no         ; no            ; no       ; Off          ; 1.8-V        ; Default          ; Series 50 Ohm without Calibration ; --                        ; no                         ; no                          ; Fitter               ; -                    ; -                   ;
; axi_wdata[4]    ; AF22  ; 2J       ; 38           ; 35           ; 16           ; no              ; no                     ; 1         ; no         ; no            ; no       ; Off          ; 1.8-V        ; Default          ; Series 50 Ohm without Calibration ; --                        ; no                         ; no                          ; Fitter               ; -                    ; -                   ;
; axi_wdata[5]    ; AG13  ; 2J       ; 38           ; 34           ; 61           ; no              ; no                     ; 1         ; no         ; no            ; no       ; Off          ; 1.8-V        ; Default          ; Series 50 Ohm without Calibration ; --                        ; no                         ; no                          ; Fitter               ; -                    ; -                   ;
; axi_wdata[6]    ; W21   ; 2J       ; 38           ; 42           ; 46           ; no              ; no                     ; 1         ; no         ; no            ; no       ; Off          ; 1.8-V        ; Default          ; Series 50 Ohm without Calibration ; --                        ; no                         ; no                          ; Fitter               ; -                    ; -                   ;
; axi_wdata[7]    ; AH17  ; 2J       ; 38           ; 42           ; 61           ; no              ; no                     ; 1         ; no         ; no            ; no       ; Off          ; 1.8-V        ; Default          ; Series 50 Ohm without Calibration ; --                        ; no                         ; no                          ; Fitter               ; -                    ; -                   ;
; axi_wdata[8]    ; AD23  ; 2J       ; 38           ; 42           ; 16           ; no              ; no                     ; 1         ; no         ; no            ; no       ; Off          ; 1.8-V        ; Default          ; Series 50 Ohm without Calibration ; --                        ; no                         ; no                          ; Fitter               ; -                    ; -                   ;
; axi_wdata[9]    ; AG21  ; 2J       ; 38           ; 36           ; 31           ; no              ; no                     ; 1         ; no         ; no            ; no       ; Off          ; 1.8-V        ; Default          ; Series 50 Ohm without Calibration ; --                        ; no                         ; no                          ; Fitter               ; -                    ; -                   ;
; axi_wvalid      ; AB20  ; 2J       ; 38           ; 44           ; 31           ; no              ; no                     ; 1         ; no         ; no            ; no       ; Off          ; 1.8-V        ; Default          ; Series 50 Ohm without Calibration ; --                        ; no                         ; no                          ; Fitter               ; -                    ; -                   ;
; s_axi_arready   ; AC2   ; 3A       ; 102          ; 13           ; 31           ; no              ; no                     ; 1         ; no         ; no            ; no       ; Off          ; 1.8-V        ; Default          ; Series 50 Ohm without Calibration ; --                        ; no                         ; no                          ; Fitter               ; -                    ; -                   ;
; s_axi_awready   ; AA8   ; 3A       ; 102          ; 7            ; 61           ; no              ; no                     ; 1         ; no         ; no            ; no       ; Off          ; 1.8-V        ; Default          ; Series 50 Ohm without Calibration ; --                        ; no                         ; no                          ; Fitter               ; -                    ; -                   ;
; s_axi_bvalid    ; AE6   ; 3A       ; 102          ; 11           ; 16           ; no              ; no                     ; 1         ; no         ; no            ; no       ; Off          ; 1.8-V        ; Default          ; Series 50 Ohm without Calibration ; --                        ; no                         ; no                          ; Fitter               ; -                    ; -                   ;
; s_axi_rdata[0]  ; AC5   ; 3A       ; 102          ; 16           ; 46           ; no              ; no                     ; 1         ; no         ; no            ; no       ; Off          ; 1.8-V        ; Default          ; Series 50 Ohm without Calibration ; --                        ; no                         ; no                          ; Fitter               ; -                    ; -                   ;
; s_axi_rdata[10] ; AH3   ; 3A       ; 102          ; 17           ; 16           ; no              ; no                     ; 1         ; no         ; no            ; no       ; Off          ; 1.8-V        ; Default          ; Series 50 Ohm without Calibration ; --                        ; no                         ; no                          ; Fitter               ; -                    ; -                   ;
; s_axi_rdata[11] ; AG3   ; 3A       ; 102          ; 6            ; 31           ; no              ; no                     ; 1         ; no         ; no            ; no       ; Off          ; 1.8-V        ; Default          ; Series 50 Ohm without Calibration ; --                        ; no                         ; no                          ; Fitter               ; -                    ; -                   ;
; s_axi_rdata[12] ; AF3   ; 3A       ; 102          ; 7            ; 31           ; no              ; no                     ; 1         ; no         ; no            ; no       ; Off          ; 1.8-V        ; Default          ; Series 50 Ohm without Calibration ; --                        ; no                         ; no                          ; Fitter               ; -                    ; -                   ;
; s_axi_rdata[13] ; W7    ; 3A       ; 102          ; 15           ; 61           ; no              ; no                     ; 1         ; no         ; no            ; no       ; Off          ; 1.8-V        ; Default          ; Series 50 Ohm without Calibration ; --                        ; no                         ; no                          ; Fitter               ; -                    ; -                   ;
; s_axi_rdata[14] ; AF2   ; 3A       ; 102          ; 15           ; 31           ; no              ; no                     ; 1         ; no         ; no            ; no       ; Off          ; 1.8-V        ; Default          ; Series 50 Ohm without Calibration ; --                        ; no                         ; no                          ; Fitter               ; -                    ; -                   ;
; s_axi_rdata[15] ; AE2   ; 3A       ; 102          ; 10           ; 31           ; no              ; no                     ; 1         ; no         ; no            ; no       ; Off          ; 1.8-V        ; Default          ; Series 50 Ohm without Calibration ; --                        ; no                         ; no                          ; Fitter               ; -                    ; -                   ;
; s_axi_rdata[16] ; AB5   ; 3A       ; 102          ; 13           ; 46           ; no              ; no                     ; 1         ; no         ; no            ; no       ; Off          ; 1.8-V        ; Default          ; Series 50 Ohm without Calibration ; --                        ; no                         ; no                          ; Fitter               ; -                    ; -                   ;
; s_axi_rdata[17] ; AC6   ; 3A       ; 102          ; 12           ; 16           ; no              ; no                     ; 1         ; no         ; no            ; no       ; Off          ; 1.8-V        ; Default          ; Series 50 Ohm without Calibration ; --                        ; no                         ; no                          ; Fitter               ; -                    ; -                   ;
; s_axi_rdata[18] ; Y6    ; 3A       ; 102          ; 13           ; 61           ; no              ; no                     ; 1         ; no         ; no            ; no       ; Off          ; 1.8-V        ; Default          ; Series 50 Ohm without Calibration ; --                        ; no                         ; no                          ; Fitter               ; -                    ; -                   ;
; s_axi_rdata[19] ; Y5    ; 3A       ; 102          ; 11           ; 61           ; no              ; no                     ; 1         ; no         ; no            ; no       ; Off          ; 1.8-V        ; Default          ; Series 50 Ohm without Calibration ; --                        ; no                         ; no                          ; Fitter               ; -                    ; -                   ;
; s_axi_rdata[1]  ; AA1   ; 3A       ; 102          ; 15           ; 46           ; no              ; no                     ; 1         ; no         ; no            ; no       ; Off          ; 1.8-V        ; Default          ; Series 50 Ohm without Calibration ; --                        ; no                         ; no                          ; Fitter               ; -                    ; -                   ;
; s_axi_rdata[20] ; AA4   ; 3A       ; 102          ; 9            ; 46           ; no              ; no                     ; 1         ; no         ; no            ; no       ; Off          ; 1.8-V        ; Default          ; Series 50 Ohm without Calibration ; --                        ; no                         ; no                          ; Fitter               ; -                    ; -                   ;
; s_axi_rdata[21] ; AF6   ; 3A       ; 102          ; 10           ; 16           ; no              ; no                     ; 1         ; no         ; no            ; no       ; Off          ; 1.8-V        ; Default          ; Series 50 Ohm without Calibration ; --                        ; no                         ; no                          ; Fitter               ; -                    ; -                   ;
; s_axi_rdata[22] ; AH2   ; 3A       ; 102          ; 16           ; 16           ; no              ; no                     ; 1         ; no         ; no            ; no       ; Off          ; 1.8-V        ; Default          ; Series 50 Ohm without Calibration ; --                        ; no                         ; no                          ; Fitter               ; -                    ; -                   ;
; s_axi_rdata[23] ; W8    ; 3A       ; 102          ; 14           ; 61           ; no              ; no                     ; 1         ; no         ; no            ; no       ; Off          ; 1.8-V        ; Default          ; Series 50 Ohm without Calibration ; --                        ; no                         ; no                          ; Fitter               ; -                    ; -                   ;
; s_axi_rdata[24] ; Y7    ; 3A       ; 102          ; 12           ; 61           ; no              ; no                     ; 1         ; no         ; no            ; no       ; Off          ; 1.8-V        ; Default          ; Series 50 Ohm without Calibration ; --                        ; no                         ; no                          ; Fitter               ; -                    ; -                   ;
; s_axi_rdata[25] ; AB3   ; 3A       ; 102          ; 11           ; 46           ; no              ; no                     ; 1         ; no         ; no            ; no       ; Off          ; 1.8-V        ; Default          ; Series 50 Ohm without Calibration ; --                        ; no                         ; no                          ; Fitter               ; -                    ; -                   ;
; s_axi_rdata[26] ; W4    ; 3A       ; 102          ; 16           ; 61           ; no              ; no                     ; 1         ; no         ; no            ; no       ; Off          ; 1.8-V        ; Default          ; Series 50 Ohm without Calibration ; --                        ; no                         ; no                          ; Fitter               ; -                    ; -                   ;
; s_axi_rdata[27] ; AF1   ; 3A       ; 102          ; 9            ; 31           ; no              ; no                     ; 1         ; no         ; no            ; no       ; Off          ; 1.8-V        ; Default          ; Series 50 Ohm without Calibration ; --                        ; no                         ; no                          ; Fitter               ; -                    ; -                   ;
; s_axi_rdata[28] ; Y4    ; 3A       ; 102          ; 17           ; 61           ; no              ; no                     ; 1         ; no         ; no            ; no       ; Off          ; 1.8-V        ; Default          ; Series 50 Ohm without Calibration ; --                        ; no                         ; no                          ; Fitter               ; -                    ; -                   ;
; s_axi_rdata[29] ; AC1   ; 3A       ; 102          ; 12           ; 31           ; no              ; no                     ; 1         ; no         ; no            ; no       ; Off          ; 1.8-V        ; Default          ; Series 50 Ohm without Calibration ; --                        ; no                         ; no                          ; Fitter               ; -                    ; -                   ;
; s_axi_rdata[2]  ; AA2   ; 3A       ; 102          ; 10           ; 46           ; no              ; no                     ; 1         ; no         ; no            ; no       ; Off          ; 1.8-V        ; Default          ; Series 50 Ohm without Calibration ; --                        ; no                         ; no                          ; Fitter               ; -                    ; -                   ;
